T4BA8 000:034.859   SEGGER J-Link V7.80d Log File
T4BA8 000:034.966   DLL Compiled: Oct  4 2022 16:35:44
T4BA8 000:034.971   Logging started @ 2022-11-21 09:13
T4BA8 000:034.975 - 34.977ms
T4BA8 000:034.983 JLINK_SetWarnOutHandler(...)
T4BA8 000:034.989 - 0.008ms
T4BA8 000:034.994 JLINK_OpenEx(...)
T4BA8 000:035.949   Firmware: J-Link ARM V8 compiled Nov 28 2014 13:44:46
T4BA8 000:036.258   Firmware: J-Link ARM V8 compiled Nov 28 2014 13:44:46
T4BA8 000:038.784   Hardware: V8.00
T4BA8 000:038.798   S/N: 805251123
T4BA8 000:038.805   OEM: SEGGER
T4BA8 000:038.811   Feature(s): RDI,FlashDL,FlashBP,JFlash,GDB
T4BA8 000:040.321   TELNET listener socket opened on port 19021
T4BA8 000:040.505   WEBSRV WEBSRV_Init(): Starting webserver thread(s)
T4BA8 000:040.655   WEBSRV Webserver running on local port 19080
T4BA8 000:048.688 - 13.707ms returns "O.K."
T4BA8 000:048.720 JLINK_SetErrorOutHandler(...)
T4BA8 000:048.725 - 0.007ms
T4BA8 000:048.740 JLINK_ExecCommand("ProjectFile = "D:\OneDrive - email.szu.edu.cn\作业\机器人\robot软件\sensor\sensor\JLinkSettings.ini"", ...). 
T4BA8 000:058.357   Ref file found at: D:\Keil\ARM\Segger\JLinkDevices.ref
T4BA8 000:058.452   REF file references invalid XML file: C:\Program Files\SEGGER\JLink\JLinkDevices.xml
T4BA8 000:058.896 - 10.161ms returns 0x00
T4BA8 000:062.404 JLINK_ExecCommand("Device = STM32F103VC", ...). 
T4BA8 000:064.891   Device "STM32F103VC" selected.
T4BA8 000:065.248 - 2.833ms returns 0x00
T4BA8 000:065.260 JLINK_ExecCommand("DisableConnectionTimeout", ...). 
T4BA8 000:065.267 - 0.004ms returns 0x01
T4BA8 000:065.274 JLINK_GetHardwareVersion()
T4BA8 000:065.278 - 0.007ms returns 80000
T4BA8 000:065.286 JLINK_GetDLLVersion()
T4BA8 000:065.291 - 0.006ms returns 78004
T4BA8 000:065.296 JLINK_GetOEMString(...)
T4BA8 000:065.301 JLINK_GetFirmwareString(...)
T4BA8 000:065.305 - 0.006ms
T4BA8 000:072.830 JLINK_GetDLLVersion()
T4BA8 000:072.843 - 0.015ms returns 78004
T4BA8 000:072.849 JLINK_GetCompileDateTime()
T4BA8 000:072.853 - 0.006ms
T4BA8 000:074.715 JLINK_GetFirmwareString(...)
T4BA8 000:074.726 - 0.013ms
T4BA8 000:076.223 JLINK_GetHardwareVersion()
T4BA8 000:076.233 - 0.011ms returns 80000
T4BA8 000:077.695 JLINK_GetSN()
T4BA8 000:077.705 - 0.012ms returns 805251123
T4BA8 000:079.167 JLINK_GetOEMString(...)
T4BA8 000:082.157 JLINK_TIF_Select(JLINKARM_TIF_JTAG)
T4BA8 000:082.820 - 0.672ms returns 0x00
T4BA8 000:082.835 JLINK_HasError()
T4BA8 000:082.847 JLINK_SetSpeed(2000)
T4BA8 000:082.915 - 0.072ms
T4BA8 000:082.924 JLINK_GetIdData(pIdData)
T4BA8 000:084.623   InitTarget() start
T4BA8 000:084.635    J-Link Script File: Executing InitTarget()
T4BA8 000:087.688   TotalIRLen = 9, IRPrint = 0x0011
T4BA8 000:089.823   JTAG chain detection found 2 devices:
T4BA8 000:091.354    #0 Id: 0x3BA00477, IRLen: 04, CoreSight JTAG-DP
T4BA8 000:092.856    #1 Id: 0x06414041, IRLen: 05, STM32 Boundary Scan
T4BA8 000:109.843   InitTarget() end
T4BA8 000:112.712   TotalIRLen = 9, IRPrint = 0x0011
T4BA8 000:115.056   JTAG chain detection found 2 devices:
T4BA8 000:116.955    #0 Id: 0x3BA00477, IRLen: 04, CoreSight JTAG-DP
T4BA8 000:118.790    #1 Id: 0x06414041, IRLen: 05, STM32 Boundary Scan
T4BA8 000:122.387   Old FW that does not support reading DPIDR via DAP jobs
T4BA8 000:127.229   DPv0 detected
T4BA8 000:128.764   CoreSight SoC-400 or earlier
T4BA8 000:130.336   Scanning AP map to find all available APs
T4BA8 000:134.800   AP[1]: Stopped AP scan as end of AP map has been reached
T4BA8 000:136.752   AP[0]: AHB-AP (IDR: 0x14770011)
T4BA8 000:138.341   Iterating through AP map to find AHB-AP to use
T4BA8 000:144.096   AP[0]: Core found
T4BA8 000:145.628   AP[0]: AHB-AP ROM base: 0xE00FF000
T4BA8 000:149.444   CPUID register: 0x411FC231. Implementer code: 0x41 (ARM)
T4BA8 000:151.054   Found Cortex-M3 r1p1, Little endian.
T4BA8 000:151.383   -- Max. mem block: 0x00002408
T4BA8 000:151.487   CPU_ReadMem(4 bytes @ 0xE000EDF0)
T4BA8 000:155.467   CPU_ReadMem(4 bytes @ 0xE0002000)
T4BA8 000:157.848   FPUnit: 6 code (BP) slots and 2 literal slots
T4BA8 000:157.899   CPU_ReadMem(4 bytes @ 0xE000EDFC)
T4BA8 000:158.481   CPU_WriteMem(4 bytes @ 0xE000EDFC)
T4BA8 000:158.903   CPU_ReadMem(4 bytes @ 0xE0001000)
T4BA8 000:159.479   CPU_WriteMem(4 bytes @ 0xE0001000)
T4BA8 000:159.899   CPU_ReadMem(4 bytes @ 0xE000ED88)
T4BA8 000:160.480   CPU_WriteMem(4 bytes @ 0xE000ED88)
T4BA8 000:160.899   CPU_ReadMem(4 bytes @ 0xE000ED88)
T4BA8 000:161.478   CPU_WriteMem(4 bytes @ 0xE000ED88)
T4BA8 000:164.596   CoreSight components:
T4BA8 000:166.241   ROMTbl[0] @ E00FF000
T4BA8 000:166.258   CPU_ReadMem(64 bytes @ 0xE00FF000)
T4BA8 000:167.314   CPU_ReadMem(32 bytes @ 0xE000EFE0)
T4BA8 000:169.775   [0][0]: E000E000 CID B105E00D PID 001BB000 SCS
T4BA8 000:169.788   CPU_ReadMem(32 bytes @ 0xE0001FE0)
T4BA8 000:172.316   [0][1]: E0001000 CID B105E00D PID 001BB002 DWT
T4BA8 000:172.330   CPU_ReadMem(32 bytes @ 0xE0002FE0)
T4BA8 000:174.604   [0][2]: E0002000 CID B105E00D PID 000BB003 FPB
T4BA8 000:174.618   CPU_ReadMem(32 bytes @ 0xE0000FE0)
T4BA8 000:176.914   [0][3]: E0000000 CID B105E00D PID 001BB001 ITM
T4BA8 000:176.928   CPU_ReadMem(32 bytes @ 0xE0040FE0)
T4BA8 000:179.390   [0][4]: E0040000 CID B105900D PID 001BB923 TPIU-Lite
T4BA8 000:179.407   CPU_ReadMem(32 bytes @ 0xE0041FE0)
T4BA8 000:181.715   [0][5]: E0041000 CID B105900D PID 101BB924 ETM-M3
T4BA8 000:181.749   pIdData->ScanLen=9
T4BA8 000:181.755   
T4BA8 000:181.760   pIdData->NumDevices=2
T4BA8 000:181.765   
T4BA8 000:181.769   pIdData->aId[0]=0x3BA00477
T4BA8 000:181.775   
T4BA8 000:181.779   pIdData->aIrRead[0]=0
T4BA8 000:181.785   
T4BA8 000:181.789   pIdData->aScanLen[0]=0
T4BA8 000:181.794   
T4BA8 000:181.798   pIdData->aScanRead[0]=0
T4BA8 000:181.804   
T4BA8 000:181.808 - 98.886ms
T4BA8 000:181.822 JLINK_JTAG_GetDeviceID(DeviceIndex = 0)
T4BA8 000:181.828 - 0.008ms returns 1000342647
T4BA8 000:181.836 JLINK_JTAG_GetDeviceInfo(DeviceIndex = 0)
T4BA8 000:181.841 - 0.006ms returns 0
T4BA8 000:181.846 JLINK_JTAG_GetDeviceID(DeviceIndex = 1)
T4BA8 000:181.850 - 0.006ms returns 104939585
T4BA8 000:181.857 JLINK_JTAG_GetDeviceInfo(DeviceIndex = 1)
T4BA8 000:181.861 - 0.006ms returns 0
T4BA8 000:181.891 JLINK_GetDeviceFamily
T4BA8 000:181.897 - 0.007ms returns 3
T4BA8 000:183.447 JLINK_ReadMem(0xE00FFFF0, 0x10 Bytes, ...)
T4BA8 000:183.468   CPU_ReadMem(16 bytes @ 0xE00FFFF0)
T4BA8 000:184.086   Data:  0D 00 00 00 10 00 00 00 05 00 00 00 B1 00 00 00
T4BA8 000:184.094 - 0.649ms returns 0
T4BA8 000:184.100 JLINK_ReadMem(0xE00FFFD0, 0x20 Bytes, ...)
T4BA8 000:184.107   CPU_ReadMem(32 bytes @ 0xE00FFFD0)
T4BA8 000:184.892   Data:  00 00 00 00 00 00 00 00 00 00 00 00 00 00 00 00 ...
T4BA8 000:184.905 - 0.807ms returns 0
T4BA8 000:184.913 JLINK_ReadMem(0xE00FF000, 0x18 Bytes, ...)
T4BA8 000:184.922   CPU_ReadMem(24 bytes @ 0xE00FF000)
T4BA8 000:185.679   Data:  03 F0 F0 FF 03 20 F0 FF 03 30 F0 FF 03 10 F0 FF ...
T4BA8 000:185.686 - 0.775ms returns 0
T4BA8 000:185.693 JLINK_ReadMemU32(0xE000ED00, 0x1 Items)
T4BA8 000:185.700   CPU_ReadMem(4 bytes @ 0xE000ED00)
T4BA8 000:186.205   Data:  31 C2 1F 41
T4BA8 000:186.214   Debug reg: CPUID
T4BA8 000:186.220 - 0.529ms returns 1 (0x1)
T4BA8 000:186.226 JLINK_HasError()
T4BA8 000:186.232 JLINK_SetResetType(JLINKARM_CM3_RESET_TYPE_NORMAL)
T4BA8 000:186.237 - 0.006ms returns JLINKARM_CM3_RESET_TYPE_NORMAL
T4BA8 000:186.242 JLINK_Reset()
T4BA8 000:186.255   CPU is running
T4BA8 000:186.262   CPU_WriteMem(4 bytes @ 0xE000EDF0)
T4BA8 000:186.686   CPU is running
T4BA8 000:186.694   CPU_WriteMem(4 bytes @ 0xE000EDFC)
T4BA8 000:188.967   Reset: Halt core after reset via DEMCR.VC_CORERESET.
T4BA8 000:190.644   Reset: Reset device via AIRCR.SYSRESETREQ.
T4BA8 000:190.657   CPU is running
T4BA8 000:190.665   CPU_WriteMem(4 bytes @ 0xE000ED0C)
T4BA8 000:241.954   CPU_ReadMem(4 bytes @ 0xE000EDF0)
T4BA8 000:242.570   CPU_ReadMem(4 bytes @ 0xE000EDF0)
T4BA8 000:243.154   CPU is running
T4BA8 000:243.167   CPU_WriteMem(4 bytes @ 0xE000EDF0)
T4BA8 000:243.628   CPU is running
T4BA8 000:243.642   CPU_WriteMem(4 bytes @ 0xE000EDFC)
T4BA8 000:249.939   CPU_ReadMem(4 bytes @ 0xE000EDF0)
T4BA8 000:254.981   CPU_WriteMem(4 bytes @ 0xE000EDFC)
T4BA8 000:255.427   CPU_WriteMem(4 bytes @ 0xE0001028)
T4BA8 000:255.980   CPU_WriteMem(4 bytes @ 0xE0001038)
T4BA8 000:256.504   CPU_WriteMem(4 bytes @ 0xE0001048)
T4BA8 000:256.934   CPU_WriteMem(4 bytes @ 0xE0001058)
T4BA8 000:257.386   CPU_WriteMem(4 bytes @ 0xE0002000)
T4BA8 000:257.808   CPU_ReadMem(4 bytes @ 0xE000EDFC)
T4BA8 000:258.331   CPU_ReadMem(4 bytes @ 0xE0001000)
T4BA8 000:258.831 - 72.593ms
T4BA8 000:258.874 JLINK_Halt()
T4BA8 000:258.885 - 0.012ms returns 0x00
T4BA8 000:258.891 JLINK_IsHalted()
T4BA8 000:258.896 - 0.007ms returns TRUE
T4BA8 000:258.903 JLINK_ReadMemU32(0xE000EDF0, 0x1 Items)
T4BA8 000:258.914   CPU_ReadMem(4 bytes @ 0xE000EDF0)
T4BA8 000:259.479   Data:  03 00 03 00
T4BA8 000:259.488   Debug reg: DHCSR
T4BA8 000:259.495 - 0.594ms returns 1 (0x1)
T4BA8 000:259.504 JLINK_WriteU32_64(0xE000EDF0, 0xA05F0003)
T4BA8 000:259.509   Debug reg: DHCSR
T4BA8 000:259.711   CPU_WriteMem(4 bytes @ 0xE000EDF0)
T4BA8 000:260.125 - 0.625ms returns 0 (0x00000000)
T4BA8 000:260.134 JLINK_WriteU32_64(0xE000EDFC, 0x01000000)
T4BA8 000:260.139   Debug reg: DEMCR
T4BA8 000:260.149   CPU_WriteMem(4 bytes @ 0xE000EDFC)
T4BA8 000:260.597 - 0.466ms returns 0 (0x00000000)
T4BA8 000:267.167 JLINK_GetHWStatus(...)
T4BA8 000:267.341 - 0.177ms returns 0
T4BA8 000:272.376 JLINK_GetNumBPUnits(Type = 0xFFFFFF00)
T4BA8 000:272.388 - 0.014ms returns 0x06
T4BA8 000:272.394 JLINK_GetNumBPUnits(Type = 0xF0)
T4BA8 000:272.399 - 0.006ms returns 0x2000
T4BA8 000:272.404 JLINK_GetNumWPUnits()
T4BA8 000:272.408 - 0.006ms returns 4
T4BA8 000:277.049 JLINK_GetSpeed()
T4BA8 000:277.061 - 0.014ms returns 2000
T4BA8 000:279.961 JLINK_ReadMemU32(0xE000E004, 0x1 Items)
T4BA8 000:279.983   CPU_ReadMem(4 bytes @ 0xE000E004)
T4BA8 000:280.532   Data:  01 00 00 00
T4BA8 000:280.540 - 0.580ms returns 1 (0x1)
T4BA8 000:280.547 JLINK_ReadMemU32(0xE000E004, 0x1 Items)
T4BA8 000:280.554   CPU_ReadMem(4 bytes @ 0xE000E004)
T4BA8 000:281.073   Data:  01 00 00 00
T4BA8 000:281.081 - 0.536ms returns 1 (0x1)
T4BA8 000:281.087 JLINK_WriteMem(0xE0001000, 0x1C Bytes, ...)
T4BA8 000:281.092   Data:  01 00 00 00 00 00 00 00 00 00 00 00 00 00 00 00 ...
T4BA8 000:281.103   CPU_WriteMem(28 bytes @ 0xE0001000)
T4BA8 000:281.774 - 0.695ms returns 0x1C
T4BA8 000:281.788 JLINK_ReadMem(0xE0001000, 0x1C Bytes, ...)
T4BA8 000:281.798   CPU_ReadMem(28 bytes @ 0xE0001000)
T4BA8 000:282.591   Data:  01 00 00 40 00 00 00 00 00 00 00 00 00 00 00 00 ...
T4BA8 000:282.602 - 0.816ms returns 0
T4BA8 000:282.615 JLINK_Halt()
T4BA8 000:282.620 - 0.007ms returns 0x00
T4BA8 000:282.625 JLINK_IsHalted()
T4BA8 000:282.630 - 0.006ms returns TRUE
T4BA8 000:284.730 JLINK_WriteMem(0x20000000, 0x164 Bytes, ...)
T4BA8 000:284.739   Data:  00 BE 0A E0 0D 78 2D 06 68 40 08 24 40 00 00 D3 ...
T4BA8 000:284.940   CPU_WriteMem(356 bytes @ 0x20000000)
T4BA8 000:287.834 - 3.112ms returns 0x164
T4BA8 000:287.882 JLINK_HasError()
T4BA8 000:287.889 JLINK_WriteReg(R0, 0x08000000)
T4BA8 000:287.900 - 0.015ms returns 0
T4BA8 000:287.907 JLINK_WriteReg(R1, 0x007A1200)
T4BA8 000:287.912 - 0.007ms returns 0
T4BA8 000:287.917 JLINK_WriteReg(R2, 0x00000001)
T4BA8 000:287.922 - 0.006ms returns 0
T4BA8 000:287.927 JLINK_WriteReg(R3, 0x00000000)
T4BA8 000:287.931 - 0.006ms returns 0
T4BA8 000:287.936 JLINK_WriteReg(R4, 0x00000000)
T4BA8 000:287.941 - 0.006ms returns 0
T4BA8 000:287.946 JLINK_WriteReg(R5, 0x00000000)
T4BA8 000:287.950 - 0.006ms returns 0
T4BA8 000:287.955 JLINK_WriteReg(R6, 0x00000000)
T4BA8 000:287.960 - 0.006ms returns 0
T4BA8 000:287.965 JLINK_WriteReg(R7, 0x00000000)
T4BA8 000:287.969 - 0.006ms returns 0
T4BA8 000:287.974 JLINK_WriteReg(R8, 0x00000000)
T4BA8 000:287.981 - 0.009ms returns 0
T4BA8 000:287.986 JLINK_WriteReg(R9, 0x20000160)
T4BA8 000:287.990 - 0.006ms returns 0
T4BA8 000:287.995 JLINK_WriteReg(R10, 0x00000000)
T4BA8 000:288.005 - 0.012ms returns 0
T4BA8 000:288.010 JLINK_WriteReg(R11, 0x00000000)
T4BA8 000:288.019 - 0.010ms returns 0
T4BA8 000:288.024 JLINK_WriteReg(R12, 0x00000000)
T4BA8 000:288.028 - 0.006ms returns 0
T4BA8 000:288.033 JLINK_WriteReg(R13 (SP), 0x20000800)
T4BA8 000:288.038 - 0.007ms returns 0
T4BA8 000:288.043 JLINK_WriteReg(R14, 0x20000001)
T4BA8 000:288.050 - 0.009ms returns 0
T4BA8 000:288.055 JLINK_WriteReg(R15 (PC), 0x20000038)
T4BA8 000:288.061 - 0.008ms returns 0
T4BA8 000:288.066 JLINK_WriteReg(XPSR, 0x01000000)
T4BA8 000:288.071 - 0.006ms returns 0
T4BA8 000:288.075 JLINK_WriteReg(MSP, 0x20000800)
T4BA8 000:288.080 - 0.006ms returns 0
T4BA8 000:288.085 JLINK_WriteReg(PSP, 0x20000800)
T4BA8 000:288.089 - 0.006ms returns 0
T4BA8 000:288.094 JLINK_WriteReg(CFBP, 0x00000000)
T4BA8 000:288.098 - 0.006ms returns 0
T4BA8 000:288.103 JLINK_SetBPEx(Addr = 0x20000000, Type = 0xFFFFFFF2)
T4BA8 000:288.112   CPU_ReadMem(2 bytes @ 0x20000000)
T4BA8 000:288.712 - 0.616ms returns 0x00000001
T4BA8 000:288.725 JLINK_Go()
T4BA8 000:288.734   CPU_WriteMem(2 bytes @ 0x20000000)
T4BA8 000:289.193   CPU_ReadMem(4 bytes @ 0xE0001000)
T4BA8 000:289.770   CPU_WriteMem(4 bytes @ 0xE0002008)
T4BA8 000:289.783   CPU_WriteMem(4 bytes @ 0xE000200C)
T4BA8 000:289.789   CPU_WriteMem(4 bytes @ 0xE0002010)
T4BA8 000:289.796   CPU_WriteMem(4 bytes @ 0xE0002014)
T4BA8 000:289.803   CPU_WriteMem(4 bytes @ 0xE0002018)
T4BA8 000:289.809   CPU_WriteMem(4 bytes @ 0xE000201C)
T4BA8 000:292.159   CPU_WriteMem(4 bytes @ 0xE0001004)
T4BA8 000:295.251 - 6.534ms
T4BA8 000:295.265 JLINK_IsHalted()
T4BA8 000:299.557   CPU_ReadMem(2 bytes @ 0x20000000)
T4BA8 000:300.101 - 4.840ms returns TRUE
T4BA8 000:300.111 JLINK_ReadReg(R15 (PC))
T4BA8 000:300.119 - 0.010ms returns 0x20000000
T4BA8 000:300.124 JLINK_ClrBPEx(BPHandle = 0x00000001)
T4BA8 000:300.129 - 0.007ms returns 0x00
T4BA8 000:300.135 JLINK_ReadReg(R0)
T4BA8 000:300.139 - 0.006ms returns 0x00000000
T4BA8 000:300.393 JLINK_HasError()
T4BA8 000:300.402 JLINK_WriteReg(R0, 0x08000000)
T4BA8 000:300.408 - 0.008ms returns 0
T4BA8 000:300.413 JLINK_WriteReg(R1, 0x007A1200)
T4BA8 000:300.418 - 0.006ms returns 0
T4BA8 000:300.423 JLINK_WriteReg(R2, 0x00000001)
T4BA8 000:300.428 - 0.007ms returns 0
T4BA8 000:300.438 JLINK_WriteReg(R3, 0x00000000)
T4BA8 000:300.443 - 0.006ms returns 0
T4BA8 000:300.448 JLINK_WriteReg(R4, 0x00000000)
T4BA8 000:300.452 - 0.006ms returns 0
T4BA8 000:300.457 JLINK_WriteReg(R5, 0x00000000)
T4BA8 000:300.462 - 0.006ms returns 0
T4BA8 000:300.466 JLINK_WriteReg(R6, 0x00000000)
T4BA8 000:300.471 - 0.006ms returns 0
T4BA8 000:300.476 JLINK_WriteReg(R7, 0x00000000)
T4BA8 000:300.480 - 0.006ms returns 0
T4BA8 000:300.485 JLINK_WriteReg(R8, 0x00000000)
T4BA8 000:300.490 - 0.006ms returns 0
T4BA8 000:300.495 JLINK_WriteReg(R9, 0x20000160)
T4BA8 000:300.499 - 0.006ms returns 0
T4BA8 000:300.504 JLINK_WriteReg(R10, 0x00000000)
T4BA8 000:300.509 - 0.006ms returns 0
T4BA8 000:300.513 JLINK_WriteReg(R11, 0x00000000)
T4BA8 000:300.518 - 0.006ms returns 0
T4BA8 000:300.523 JLINK_WriteReg(R12, 0x00000000)
T4BA8 000:300.527 - 0.006ms returns 0
T4BA8 000:300.532 JLINK_WriteReg(R13 (SP), 0x20000800)
T4BA8 000:300.537 - 0.007ms returns 0
T4BA8 000:300.542 JLINK_WriteReg(R14, 0x20000001)
T4BA8 000:300.547 - 0.006ms returns 0
T4BA8 000:300.552 JLINK_WriteReg(R15 (PC), 0x2000007C)
T4BA8 000:300.557 - 0.007ms returns 0
T4BA8 000:300.562 JLINK_WriteReg(XPSR, 0x01000000)
T4BA8 000:300.566 - 0.006ms returns 0
T4BA8 000:300.571 JLINK_WriteReg(MSP, 0x20000800)
T4BA8 000:300.575 - 0.006ms returns 0
T4BA8 000:300.580 JLINK_WriteReg(PSP, 0x20000800)
T4BA8 000:300.585 - 0.006ms returns 0
T4BA8 000:300.590 JLINK_WriteReg(CFBP, 0x00000000)
T4BA8 000:300.594 - 0.006ms returns 0
T4BA8 000:300.599 JLINK_SetBPEx(Addr = 0x20000000, Type = 0xFFFFFFF2)
T4BA8 000:300.604 - 0.007ms returns 0x00000002
T4BA8 000:300.609 JLINK_Go()
T4BA8 000:300.620   CPU_ReadMem(4 bytes @ 0xE0001000)
T4BA8 000:303.909 - 3.309ms
T4BA8 000:303.924 JLINK_IsHalted()
T4BA8 000:304.369 - 0.450ms returns FALSE
T4BA8 000:304.411 JLINK_HasError()
T4BA8 000:332.965 JLINK_IsHalted()
T4BA8 000:337.571   CPU_ReadMem(2 bytes @ 0x20000000)
T4BA8 000:338.208 - 5.251ms returns TRUE
T4BA8 000:338.243 JLINK_ReadReg(R15 (PC))
T4BA8 000:338.251 - 0.010ms returns 0x20000000
T4BA8 000:338.259 JLINK_ClrBPEx(BPHandle = 0x00000002)
T4BA8 000:338.264 - 0.007ms returns 0x00
T4BA8 000:338.271 JLINK_ReadReg(R0)
T4BA8 000:338.276 - 0.007ms returns 0x00000000
T4BA8 000:390.156 JLINK_HasError()
T4BA8 000:390.173 JLINK_WriteReg(R0, 0x00000001)
T4BA8 000:390.183 - 0.011ms returns 0
T4BA8 000:390.188 JLINK_WriteReg(R1, 0x007A1200)
T4BA8 000:390.193 - 0.007ms returns 0
T4BA8 000:390.198 JLINK_WriteReg(R2, 0x00000001)
T4BA8 000:390.203 - 0.006ms returns 0
T4BA8 000:390.208 JLINK_WriteReg(R3, 0x00000000)
T4BA8 000:390.213 - 0.006ms returns 0
T4BA8 000:390.217 JLINK_WriteReg(R4, 0x00000000)
T4BA8 000:390.222 - 0.006ms returns 0
T4BA8 000:390.227 JLINK_WriteReg(R5, 0x00000000)
T4BA8 000:390.232 - 0.006ms returns 0
T4BA8 000:390.237 JLINK_WriteReg(R6, 0x00000000)
T4BA8 000:390.241 - 0.006ms returns 0
T4BA8 000:390.246 JLINK_WriteReg(R7, 0x00000000)
T4BA8 000:390.251 - 0.006ms returns 0
T4BA8 000:390.256 JLINK_WriteReg(R8, 0x00000000)
T4BA8 000:390.260 - 0.006ms returns 0
T4BA8 000:390.265 JLINK_WriteReg(R9, 0x20000160)
T4BA8 000:390.270 - 0.006ms returns 0
T4BA8 000:390.275 JLINK_WriteReg(R10, 0x00000000)
T4BA8 000:390.279 - 0.006ms returns 0
T4BA8 000:390.284 JLINK_WriteReg(R11, 0x00000000)
T4BA8 000:390.289 - 0.006ms returns 0
T4BA8 000:390.294 JLINK_WriteReg(R12, 0x00000000)
T4BA8 000:390.298 - 0.006ms returns 0
T4BA8 000:390.303 JLINK_WriteReg(R13 (SP), 0x20000800)
T4BA8 000:390.309 - 0.007ms returns 0
T4BA8 000:390.314 JLINK_WriteReg(R14, 0x20000001)
T4BA8 000:390.318 - 0.012ms returns 0
T4BA8 000:390.330 JLINK_WriteReg(R15 (PC), 0x2000006A)
T4BA8 000:390.335 - 0.007ms returns 0
T4BA8 000:390.340 JLINK_WriteReg(XPSR, 0x01000000)
T4BA8 000:390.345 - 0.006ms returns 0
T4BA8 000:390.350 JLINK_WriteReg(MSP, 0x20000800)
T4BA8 000:390.354 - 0.006ms returns 0
T4BA8 000:390.359 JLINK_WriteReg(PSP, 0x20000800)
T4BA8 000:390.364 - 0.006ms returns 0
T4BA8 000:390.369 JLINK_WriteReg(CFBP, 0x00000000)
T4BA8 000:390.373 - 0.006ms returns 0
T4BA8 000:390.378 JLINK_SetBPEx(Addr = 0x20000000, Type = 0xFFFFFFF2)
T4BA8 000:390.384 - 0.008ms returns 0x00000003
T4BA8 000:390.389 JLINK_Go()
T4BA8 000:390.427   CPU_ReadMem(4 bytes @ 0xE0001000)
T4BA8 000:394.007 - 3.625ms
T4BA8 000:394.020 JLINK_IsHalted()
T4BA8 000:398.427   CPU_ReadMem(2 bytes @ 0x20000000)
T4BA8 000:399.057 - 5.042ms returns TRUE
T4BA8 000:399.068 JLINK_ReadReg(R15 (PC))
T4BA8 000:399.075 - 0.009ms returns 0x20000000
T4BA8 000:399.081 JLINK_ClrBPEx(BPHandle = 0x00000003)
T4BA8 000:399.086 - 0.007ms returns 0x00
T4BA8 000:399.091 JLINK_ReadReg(R0)
T4BA8 000:399.096 - 0.006ms returns 0x00000000
T4BA8 000:403.241 JLINK_WriteMem(0x20000000, 0x164 Bytes, ...)
T4BA8 000:403.252   Data:  00 BE 0A E0 0D 78 2D 06 68 40 08 24 40 00 00 D3 ...
T4BA8 000:403.269   CPU_WriteMem(356 bytes @ 0x20000000)
T4BA8 000:406.182 - 2.947ms returns 0x164
T4BA8 000:406.210 JLINK_HasError()
T4BA8 000:406.217 JLINK_WriteReg(R0, 0x08000000)
T4BA8 000:406.223 - 0.009ms returns 0
T4BA8 000:406.229 JLINK_WriteReg(R1, 0x007A1200)
T4BA8 000:406.234 - 0.007ms returns 0
T4BA8 000:406.239 JLINK_WriteReg(R2, 0x00000002)
T4BA8 000:406.244 - 0.006ms returns 0
T4BA8 000:406.249 JLINK_WriteReg(R3, 0x00000000)
T4BA8 000:406.253 - 0.006ms returns 0
T4BA8 000:406.258 JLINK_WriteReg(R4, 0x00000000)
T4BA8 000:406.263 - 0.007ms returns 0
T4BA8 000:406.268 JLINK_WriteReg(R5, 0x00000000)
T4BA8 000:406.273 - 0.007ms returns 0
T4BA8 000:406.278 JLINK_WriteReg(R6, 0x00000000)
T4BA8 000:406.283 - 0.006ms returns 0
T4BA8 000:406.288 JLINK_WriteReg(R7, 0x00000000)
T4BA8 000:406.292 - 0.006ms returns 0
T4BA8 000:406.298 JLINK_WriteReg(R8, 0x00000000)
T4BA8 000:406.302 - 0.007ms returns 0
T4BA8 000:406.308 JLINK_WriteReg(R9, 0x20000160)
T4BA8 000:406.313 - 0.007ms returns 0
T4BA8 000:406.326 JLINK_WriteReg(R10, 0x00000000)
T4BA8 000:406.333 - 0.008ms returns 0
T4BA8 000:406.338 JLINK_WriteReg(R11, 0x00000000)
T4BA8 000:406.343 - 0.006ms returns 0
T4BA8 000:406.348 JLINK_WriteReg(R12, 0x00000000)
T4BA8 000:406.352 - 0.006ms returns 0
T4BA8 000:406.357 JLINK_WriteReg(R13 (SP), 0x20000800)
T4BA8 000:406.363 - 0.007ms returns 0
T4BA8 000:406.368 JLINK_WriteReg(R14, 0x20000001)
T4BA8 000:406.372 - 0.006ms returns 0
T4BA8 000:406.377 JLINK_WriteReg(R15 (PC), 0x20000038)
T4BA8 000:406.382 - 0.007ms returns 0
T4BA8 000:406.388 JLINK_WriteReg(XPSR, 0x01000000)
T4BA8 000:406.392 - 0.006ms returns 0
T4BA8 000:406.397 JLINK_WriteReg(MSP, 0x20000800)
T4BA8 000:406.402 - 0.007ms returns 0
T4BA8 000:406.407 JLINK_WriteReg(PSP, 0x20000800)
T4BA8 000:406.412 - 0.006ms returns 0
T4BA8 000:406.417 JLINK_WriteReg(CFBP, 0x00000000)
T4BA8 000:406.421 - 0.006ms returns 0
T4BA8 000:406.427 JLINK_SetBPEx(Addr = 0x20000000, Type = 0xFFFFFFF2)
T4BA8 000:406.435   CPU_ReadMem(2 bytes @ 0x20000000)
T4BA8 000:407.025 - 0.605ms returns 0x00000004
T4BA8 000:407.037 JLINK_Go()
T4BA8 000:407.044   CPU_WriteMem(2 bytes @ 0x20000000)
T4BA8 000:407.562   CPU_ReadMem(4 bytes @ 0xE0001000)
T4BA8 000:410.773 - 3.741ms
T4BA8 000:410.783 JLINK_IsHalted()
T4BA8 000:415.159   CPU_ReadMem(2 bytes @ 0x20000000)
T4BA8 000:415.704 - 4.926ms returns TRUE
T4BA8 000:415.718 JLINK_ReadReg(R15 (PC))
T4BA8 000:415.725 - 0.009ms returns 0x20000000
T4BA8 000:415.733 JLINK_ClrBPEx(BPHandle = 0x00000004)
T4BA8 000:415.739 - 0.007ms returns 0x00
T4BA8 000:415.746 JLINK_ReadReg(R0)
T4BA8 000:415.751 - 0.007ms returns 0x00000000
T4BA8 000:416.006 JLINK_WriteMem(0x20000164, 0x400 Bytes, ...)
T4BA8 000:416.015   Data:  90 04 00 20 45 01 00 08 35 36 00 08 37 36 00 08 ...
T4BA8 000:416.029   CPU_WriteMem(1024 bytes @ 0x20000164)
T4BA8 000:422.447 - 6.448ms returns 0x400
T4BA8 000:422.461 JLINK_HasError()
T4BA8 000:422.467 JLINK_WriteReg(R0, 0x08000000)
T4BA8 000:422.478 - 0.013ms returns 0
T4BA8 000:422.484 JLINK_WriteReg(R1, 0x00000400)
T4BA8 000:422.489 - 0.007ms returns 0
T4BA8 000:422.494 JLINK_WriteReg(R2, 0x20000164)
T4BA8 000:422.499 - 0.007ms returns 0
T4BA8 000:422.504 JLINK_WriteReg(R3, 0x00000000)
T4BA8 000:422.508 - 0.006ms returns 0
T4BA8 000:422.513 JLINK_WriteReg(R4, 0x00000000)
T4BA8 000:422.518 - 0.006ms returns 0
T4BA8 000:422.523 JLINK_WriteReg(R5, 0x00000000)
T4BA8 000:422.528 - 0.007ms returns 0
T4BA8 000:422.533 JLINK_WriteReg(R6, 0x00000000)
T4BA8 000:422.537 - 0.006ms returns 0
T4BA8 000:422.542 JLINK_WriteReg(R7, 0x00000000)
T4BA8 000:422.547 - 0.006ms returns 0
T4BA8 000:422.552 JLINK_WriteReg(R8, 0x00000000)
T4BA8 000:422.556 - 0.006ms returns 0
T4BA8 000:422.561 JLINK_WriteReg(R9, 0x20000160)
T4BA8 000:422.566 - 0.007ms returns 0
T4BA8 000:422.571 JLINK_WriteReg(R10, 0x00000000)
T4BA8 000:422.576 - 0.006ms returns 0
T4BA8 000:422.581 JLINK_WriteReg(R11, 0x00000000)
T4BA8 000:422.585 - 0.006ms returns 0
T4BA8 000:422.590 JLINK_WriteReg(R12, 0x00000000)
T4BA8 000:422.595 - 0.006ms returns 0
T4BA8 000:422.600 JLINK_WriteReg(R13 (SP), 0x20000800)
T4BA8 000:422.605 - 0.007ms returns 0
T4BA8 000:422.611 JLINK_WriteReg(R14, 0x20000001)
T4BA8 000:422.615 - 0.007ms returns 0
T4BA8 000:422.620 JLINK_WriteReg(R15 (PC), 0x200000F4)
T4BA8 000:422.625 - 0.006ms returns 0
T4BA8 000:422.630 JLINK_WriteReg(XPSR, 0x01000000)
T4BA8 000:422.635 - 0.006ms returns 0
T4BA8 000:422.640 JLINK_WriteReg(MSP, 0x20000800)
T4BA8 000:422.645 - 0.006ms returns 0
T4BA8 000:422.650 JLINK_WriteReg(PSP, 0x20000800)
T4BA8 000:422.654 - 0.006ms returns 0
T4BA8 000:422.659 JLINK_WriteReg(CFBP, 0x00000000)
T4BA8 000:422.664 - 0.007ms returns 0
T4BA8 000:422.670 JLINK_SetBPEx(Addr = 0x20000000, Type = 0xFFFFFFF2)
T4BA8 000:422.676 - 0.008ms returns 0x00000005
T4BA8 000:422.681 JLINK_Go()
T4BA8 000:422.692   CPU_ReadMem(4 bytes @ 0xE0001000)
T4BA8 000:425.905 - 3.230ms
T4BA8 000:425.916 JLINK_IsHalted()
T4BA8 000:426.372 - 0.464ms returns FALSE
T4BA8 000:426.386 JLINK_HasError()
T4BA8 000:438.365 JLINK_IsHalted()
T4BA8 000:438.822 - 0.464ms returns FALSE
T4BA8 000:438.835 JLINK_HasError()
T4BA8 000:440.365 JLINK_IsHalted()
T4BA8 000:440.805 - 0.449ms returns FALSE
T4BA8 000:440.823 JLINK_HasError()
T4BA8 000:442.364 JLINK_IsHalted()
T4BA8 000:442.810 - 0.453ms returns FALSE
T4BA8 000:442.823 JLINK_HasError()
T4BA8 000:444.362 JLINK_IsHalted()
T4BA8 000:444.763 - 0.409ms returns FALSE
T4BA8 000:444.776 JLINK_HasError()
T4BA8 000:446.364 JLINK_IsHalted()
T4BA8 000:446.767 - 0.410ms returns FALSE
T4BA8 000:446.778 JLINK_HasError()
T4BA8 000:448.363 JLINK_IsHalted()
T4BA8 000:448.825 - 0.467ms returns FALSE
T4BA8 000:448.835 JLINK_HasError()
T4BA8 000:453.329 JLINK_IsHalted()
T4BA8 000:453.746 - 0.422ms returns FALSE
T4BA8 000:453.756 JLINK_HasError()
T4BA8 000:455.367 JLINK_IsHalted()
T4BA8 000:455.840 - 0.479ms returns FALSE
T4BA8 000:455.851 JLINK_HasError()
T4BA8 000:457.396 JLINK_IsHalted()
T4BA8 000:461.801   CPU_ReadMem(2 bytes @ 0x20000000)
T4BA8 000:462.395 - 5.006ms returns TRUE
T4BA8 000:462.408 JLINK_ReadReg(R15 (PC))
T4BA8 000:462.415 - 0.010ms returns 0x20000000
T4BA8 000:462.421 JLINK_ClrBPEx(BPHandle = 0x00000005)
T4BA8 000:462.426 - 0.007ms returns 0x00
T4BA8 000:462.432 JLINK_ReadReg(R0)
T4BA8 000:462.437 - 0.007ms returns 0x00000000
T4BA8 000:462.857 JLINK_WriteMem(0x20000164, 0x400 Bytes, ...)
T4BA8 000:462.866   Data:  88 43 05 EB 45 06 03 FA 06 F1 08 43 20 61 07 2A ...
T4BA8 000:462.879   CPU_WriteMem(1024 bytes @ 0x20000164)
T4BA8 000:469.366 - 6.516ms returns 0x400
T4BA8 000:469.383 JLINK_HasError()
T4BA8 000:469.390 JLINK_WriteReg(R0, 0x08000400)
T4BA8 000:469.397 - 0.009ms returns 0
T4BA8 000:469.403 JLINK_WriteReg(R1, 0x00000400)
T4BA8 000:469.408 - 0.036ms returns 0
T4BA8 000:469.518 JLINK_WriteReg(R2, 0x20000164)
T4BA8 000:469.531 - 0.015ms returns 0
T4BA8 000:469.537 JLINK_WriteReg(R3, 0x00000000)
T4BA8 000:469.542 - 0.007ms returns 0
T4BA8 000:469.547 JLINK_WriteReg(R4, 0x00000000)
T4BA8 000:469.552 - 0.007ms returns 0
T4BA8 000:469.557 JLINK_WriteReg(R5, 0x00000000)
T4BA8 000:469.562 - 0.006ms returns 0
T4BA8 000:469.567 JLINK_WriteReg(R6, 0x00000000)
T4BA8 000:469.572 - 0.006ms returns 0
T4BA8 000:469.577 JLINK_WriteReg(R7, 0x00000000)
T4BA8 000:469.581 - 0.007ms returns 0
T4BA8 000:469.586 JLINK_WriteReg(R8, 0x00000000)
T4BA8 000:469.591 - 0.006ms returns 0
T4BA8 000:469.596 JLINK_WriteReg(R9, 0x20000160)
T4BA8 000:469.601 - 0.006ms returns 0
T4BA8 000:469.606 JLINK_WriteReg(R10, 0x00000000)
T4BA8 000:469.610 - 0.006ms returns 0
T4BA8 000:469.616 JLINK_WriteReg(R11, 0x00000000)
T4BA8 000:469.620 - 0.007ms returns 0
T4BA8 000:469.625 JLINK_WriteReg(R12, 0x00000000)
T4BA8 000:469.630 - 0.006ms returns 0
T4BA8 000:469.635 JLINK_WriteReg(R13 (SP), 0x20000800)
T4BA8 000:469.640 - 0.007ms returns 0
T4BA8 000:469.645 JLINK_WriteReg(R14, 0x20000001)
T4BA8 000:469.650 - 0.006ms returns 0
T4BA8 000:469.655 JLINK_WriteReg(R15 (PC), 0x200000F4)
T4BA8 000:469.660 - 0.007ms returns 0
T4BA8 000:469.666 JLINK_WriteReg(XPSR, 0x01000000)
T4BA8 000:469.671 - 0.007ms returns 0
T4BA8 000:469.676 JLINK_WriteReg(MSP, 0x20000800)
T4BA8 000:469.680 - 0.006ms returns 0
T4BA8 000:469.685 JLINK_WriteReg(PSP, 0x20000800)
T4BA8 000:469.690 - 0.006ms returns 0
T4BA8 000:469.695 JLINK_WriteReg(CFBP, 0x00000000)
T4BA8 000:469.700 - 0.006ms returns 0
T4BA8 000:469.705 JLINK_SetBPEx(Addr = 0x20000000, Type = 0xFFFFFFF2)
T4BA8 000:469.711 - 0.008ms returns 0x00000006
T4BA8 000:469.716 JLINK_Go()
T4BA8 000:469.727   CPU_ReadMem(4 bytes @ 0xE0001000)
T4BA8 000:473.101 - 3.391ms
T4BA8 000:473.112 JLINK_IsHalted()
T4BA8 000:473.572 - 0.467ms returns FALSE
T4BA8 000:473.586 JLINK_HasError()
T4BA8 000:476.364 JLINK_IsHalted()
T4BA8 000:476.872 - 0.516ms returns FALSE
T4BA8 000:476.885 JLINK_HasError()
T4BA8 000:478.326 JLINK_IsHalted()
T4BA8 000:478.798 - 0.475ms returns FALSE
T4BA8 000:478.806 JLINK_HasError()
T4BA8 000:480.326 JLINK_IsHalted()
T4BA8 000:480.764 - 0.443ms returns FALSE
T4BA8 000:480.773 JLINK_HasError()
T4BA8 000:484.329 JLINK_IsHalted()
T4BA8 000:484.802 - 0.477ms returns FALSE
T4BA8 000:484.811 JLINK_HasError()
T4BA8 000:486.325 JLINK_IsHalted()
T4BA8 000:486.805 - 0.483ms returns FALSE
T4BA8 000:486.813 JLINK_HasError()
T4BA8 000:488.328 JLINK_IsHalted()
T4BA8 000:488.824 - 0.503ms returns FALSE
T4BA8 000:488.836 JLINK_HasError()
T4BA8 000:490.335 JLINK_IsHalted()
T4BA8 000:490.798 - 0.469ms returns FALSE
T4BA8 000:490.809 JLINK_HasError()
T4BA8 000:496.327 JLINK_IsHalted()
T4BA8 000:496.763 - 0.439ms returns FALSE
T4BA8 000:496.772 JLINK_HasError()
T4BA8 000:498.350 JLINK_IsHalted()
T4BA8 000:498.781 - 0.434ms returns FALSE
T4BA8 000:498.789 JLINK_HasError()
T4BA8 000:500.326 JLINK_IsHalted()
T4BA8 000:500.748 - 0.427ms returns FALSE
T4BA8 000:500.757 JLINK_HasError()
T4BA8 000:502.357 JLINK_IsHalted()
T4BA8 000:502.818 - 0.470ms returns FALSE
T4BA8 000:502.832 JLINK_HasError()
T4BA8 000:504.429 JLINK_IsHalted()
T4BA8 000:508.723   CPU_ReadMem(2 bytes @ 0x20000000)
T4BA8 000:509.279 - 4.856ms returns TRUE
T4BA8 000:509.289 JLINK_ReadReg(R15 (PC))
T4BA8 000:509.296 - 0.009ms returns 0x20000000
T4BA8 000:509.302 JLINK_ClrBPEx(BPHandle = 0x00000006)
T4BA8 000:509.306 - 0.007ms returns 0x00
T4BA8 000:509.312 JLINK_ReadReg(R0)
T4BA8 000:509.316 - 0.006ms returns 0x00000000
T4BA8 000:509.734 JLINK_WriteMem(0x20000164, 0x400 Bytes, ...)
T4BA8 000:509.742   Data:  23 43 1A 43 02 60 CB 68 43 60 0B 68 83 60 4B 68 ...
T4BA8 000:509.756   CPU_WriteMem(1024 bytes @ 0x20000164)
T4BA8 000:516.339 - 6.611ms returns 0x400
T4BA8 000:516.351 JLINK_HasError()
T4BA8 000:516.357 JLINK_WriteReg(R0, 0x08000800)
T4BA8 000:516.364 - 0.009ms returns 0
T4BA8 000:516.369 JLINK_WriteReg(R1, 0x00000400)
T4BA8 000:516.374 - 0.006ms returns 0
T4BA8 000:516.379 JLINK_WriteReg(R2, 0x20000164)
T4BA8 000:516.383 - 0.006ms returns 0
T4BA8 000:516.388 JLINK_WriteReg(R3, 0x00000000)
T4BA8 000:516.392 - 0.006ms returns 0
T4BA8 000:516.397 JLINK_WriteReg(R4, 0x00000000)
T4BA8 000:516.402 - 0.006ms returns 0
T4BA8 000:516.406 JLINK_WriteReg(R5, 0x00000000)
T4BA8 000:516.411 - 0.006ms returns 0
T4BA8 000:516.416 JLINK_WriteReg(R6, 0x00000000)
T4BA8 000:516.420 - 0.006ms returns 0
T4BA8 000:516.425 JLINK_WriteReg(R7, 0x00000000)
T4BA8 000:516.429 - 0.006ms returns 0
T4BA8 000:516.434 JLINK_WriteReg(R8, 0x00000000)
T4BA8 000:516.439 - 0.006ms returns 0
T4BA8 000:516.443 JLINK_WriteReg(R9, 0x20000160)
T4BA8 000:516.448 - 0.006ms returns 0
T4BA8 000:516.453 JLINK_WriteReg(R10, 0x00000000)
T4BA8 000:516.457 - 0.006ms returns 0
T4BA8 000:516.462 JLINK_WriteReg(R11, 0x00000000)
T4BA8 000:516.467 - 0.006ms returns 0
T4BA8 000:516.471 JLINK_WriteReg(R12, 0x00000000)
T4BA8 000:516.476 - 0.006ms returns 0
T4BA8 000:516.481 JLINK_WriteReg(R13 (SP), 0x20000800)
T4BA8 000:516.486 - 0.007ms returns 0
T4BA8 000:516.491 JLINK_WriteReg(R14, 0x20000001)
T4BA8 000:516.495 - 0.006ms returns 0
T4BA8 000:516.500 JLINK_WriteReg(R15 (PC), 0x200000F4)
T4BA8 000:516.505 - 0.006ms returns 0
T4BA8 000:516.509 JLINK_WriteReg(XPSR, 0x01000000)
T4BA8 000:516.514 - 0.006ms returns 0
T4BA8 000:516.519 JLINK_WriteReg(MSP, 0x20000800)
T4BA8 000:516.523 - 0.006ms returns 0
T4BA8 000:516.528 JLINK_WriteReg(PSP, 0x20000800)
T4BA8 000:516.533 - 0.006ms returns 0
T4BA8 000:516.537 JLINK_WriteReg(CFBP, 0x00000000)
T4BA8 000:516.542 - 0.006ms returns 0
T4BA8 000:516.547 JLINK_SetBPEx(Addr = 0x20000000, Type = 0xFFFFFFF2)
T4BA8 000:516.552 - 0.007ms returns 0x00000007
T4BA8 000:516.557 JLINK_Go()
T4BA8 000:516.567   CPU_ReadMem(4 bytes @ 0xE0001000)
T4BA8 000:519.959 - 3.408ms
T4BA8 000:519.969 JLINK_IsHalted()
T4BA8 000:520.442 - 0.480ms returns FALSE
T4BA8 000:520.459 JLINK_HasError()
T4BA8 000:522.327 JLINK_IsHalted()
T4BA8 000:522.776 - 0.452ms returns FALSE
T4BA8 000:522.784 JLINK_HasError()
T4BA8 000:527.327 JLINK_IsHalted()
T4BA8 000:527.806 - 0.484ms returns FALSE
T4BA8 000:527.816 JLINK_HasError()
T4BA8 000:529.329 JLINK_IsHalted()
T4BA8 000:529.797 - 0.472ms returns FALSE
T4BA8 000:529.805 JLINK_HasError()
T4BA8 000:531.327 JLINK_IsHalted()
T4BA8 000:531.779 - 0.458ms returns FALSE
T4BA8 000:531.790 JLINK_HasError()
T4BA8 000:533.365 JLINK_IsHalted()
T4BA8 000:533.844 - 0.486ms returns FALSE
T4BA8 000:533.856 JLINK_HasError()
T4BA8 000:535.425 JLINK_IsHalted()
T4BA8 000:535.882 - 0.464ms returns FALSE
T4BA8 000:535.895 JLINK_HasError()
T4BA8 000:538.379 JLINK_IsHalted()
T4BA8 000:538.849 - 0.477ms returns FALSE
T4BA8 000:538.861 JLINK_HasError()
T4BA8 000:540.327 JLINK_IsHalted()
T4BA8 000:540.821 - 0.502ms returns FALSE
T4BA8 000:540.834 JLINK_HasError()
T4BA8 000:545.360 JLINK_IsHalted()
T4BA8 000:545.967 - 0.634ms returns FALSE
T4BA8 000:546.003 JLINK_HasError()
T4BA8 000:547.365 JLINK_IsHalted()
T4BA8 000:547.891 - 0.533ms returns FALSE
T4BA8 000:547.903 JLINK_HasError()
T4BA8 000:549.373 JLINK_IsHalted()
T4BA8 000:549.897 - 0.531ms returns FALSE
T4BA8 000:549.909 JLINK_HasError()
T4BA8 000:551.440 JLINK_IsHalted()
T4BA8 000:555.863   CPU_ReadMem(2 bytes @ 0x20000000)
T4BA8 000:556.521 - 5.088ms returns TRUE
T4BA8 000:556.533 JLINK_ReadReg(R15 (PC))
T4BA8 000:556.540 - 0.009ms returns 0x20000000
T4BA8 000:556.546 JLINK_ClrBPEx(BPHandle = 0x00000007)
T4BA8 000:556.551 - 0.007ms returns 0x00
T4BA8 000:556.556 JLINK_ReadReg(R0)
T4BA8 000:556.560 - 0.006ms returns 0x00000000
T4BA8 000:556.930 JLINK_WriteMem(0x20000164, 0x400 Bytes, ...)
T4BA8 000:556.938   Data:  08 61 08 46 00 69 40 F0 40 00 08 61 4F F4 30 20 ...
T4BA8 000:556.951   CPU_WriteMem(1024 bytes @ 0x20000164)
T4BA8 000:563.469 - 6.547ms returns 0x400
T4BA8 000:563.483 JLINK_HasError()
T4BA8 000:563.489 JLINK_WriteReg(R0, 0x08000C00)
T4BA8 000:563.495 - 0.009ms returns 0
T4BA8 000:563.500 JLINK_WriteReg(R1, 0x00000400)
T4BA8 000:563.505 - 0.007ms returns 0
T4BA8 000:563.510 JLINK_WriteReg(R2, 0x20000164)
T4BA8 000:563.515 - 0.006ms returns 0
T4BA8 000:563.519 JLINK_WriteReg(R3, 0x00000000)
T4BA8 000:563.524 - 0.006ms returns 0
T4BA8 000:563.529 JLINK_WriteReg(R4, 0x00000000)
T4BA8 000:563.533 - 0.006ms returns 0
T4BA8 000:563.538 JLINK_WriteReg(R5, 0x00000000)
T4BA8 000:563.542 - 0.006ms returns 0
T4BA8 000:563.547 JLINK_WriteReg(R6, 0x00000000)
T4BA8 000:563.551 - 0.006ms returns 0
T4BA8 000:563.556 JLINK_WriteReg(R7, 0x00000000)
T4BA8 000:563.561 - 0.006ms returns 0
T4BA8 000:563.566 JLINK_WriteReg(R8, 0x00000000)
T4BA8 000:563.570 - 0.006ms returns 0
T4BA8 000:563.575 JLINK_WriteReg(R9, 0x20000160)
T4BA8 000:563.579 - 0.006ms returns 0
T4BA8 000:563.584 JLINK_WriteReg(R10, 0x00000000)
T4BA8 000:563.589 - 0.006ms returns 0
T4BA8 000:563.594 JLINK_WriteReg(R11, 0x00000000)
T4BA8 000:563.598 - 0.006ms returns 0
T4BA8 000:563.603 JLINK_WriteReg(R12, 0x00000000)
T4BA8 000:563.607 - 0.006ms returns 0
T4BA8 000:563.612 JLINK_WriteReg(R13 (SP), 0x20000800)
T4BA8 000:563.617 - 0.007ms returns 0
T4BA8 000:563.622 JLINK_WriteReg(R14, 0x20000001)
T4BA8 000:563.626 - 0.006ms returns 0
T4BA8 000:563.631 JLINK_WriteReg(R15 (PC), 0x200000F4)
T4BA8 000:563.637 - 0.007ms returns 0
T4BA8 000:563.642 JLINK_WriteReg(XPSR, 0x01000000)
T4BA8 000:563.646 - 0.006ms returns 0
T4BA8 000:563.651 JLINK_WriteReg(MSP, 0x20000800)
T4BA8 000:563.655 - 0.006ms returns 0
T4BA8 000:563.660 JLINK_WriteReg(PSP, 0x20000800)
T4BA8 000:563.664 - 0.006ms returns 0
T4BA8 000:563.669 JLINK_WriteReg(CFBP, 0x00000000)
T4BA8 000:563.674 - 0.006ms returns 0
T4BA8 000:563.678 JLINK_SetBPEx(Addr = 0x20000000, Type = 0xFFFFFFF2)
T4BA8 000:563.684 - 0.007ms returns 0x00000008
T4BA8 000:563.689 JLINK_Go()
T4BA8 000:563.698   CPU_ReadMem(4 bytes @ 0xE0001000)
T4BA8 000:567.278 - 3.596ms
T4BA8 000:567.290 JLINK_IsHalted()
T4BA8 000:567.831 - 0.549ms returns FALSE
T4BA8 000:567.845 JLINK_HasError()
T4BA8 000:569.339 JLINK_IsHalted()
T4BA8 000:569.757 - 0.423ms returns FALSE
T4BA8 000:569.767 JLINK_HasError()
T4BA8 000:571.431 JLINK_IsHalted()
T4BA8 000:571.911 - 0.486ms returns FALSE
T4BA8 000:571.923 JLINK_HasError()
T4BA8 000:573.362 JLINK_IsHalted()
T4BA8 000:573.766 - 0.408ms returns FALSE
T4BA8 000:573.791 JLINK_HasError()
T4BA8 000:575.335 JLINK_IsHalted()
T4BA8 000:575.759 - 0.427ms returns FALSE
T4BA8 000:575.766 JLINK_HasError()
T4BA8 000:577.335 JLINK_IsHalted()
T4BA8 000:577.761 - 0.433ms returns FALSE
T4BA8 000:577.774 JLINK_HasError()
T4BA8 000:579.337 JLINK_IsHalted()
T4BA8 000:579.763 - 0.430ms returns FALSE
T4BA8 000:579.772 JLINK_HasError()
T4BA8 000:581.383 JLINK_IsHalted()
T4BA8 000:581.815 - 0.439ms returns FALSE
T4BA8 000:581.827 JLINK_HasError()
T4BA8 000:583.397 JLINK_IsHalted()
T4BA8 000:583.857 - 0.468ms returns FALSE
T4BA8 000:583.870 JLINK_HasError()
T4BA8 000:585.393 JLINK_IsHalted()
T4BA8 000:585.855 - 0.469ms returns FALSE
T4BA8 000:585.867 JLINK_HasError()
T4BA8 000:587.400 JLINK_IsHalted()
T4BA8 000:587.881 - 0.488ms returns FALSE
T4BA8 000:587.893 JLINK_HasError()
T4BA8 000:589.393 JLINK_IsHalted()
T4BA8 000:589.855 - 0.469ms returns FALSE
T4BA8 000:589.868 JLINK_HasError()
T4BA8 000:591.394 JLINK_IsHalted()
T4BA8 000:591.853 - 0.467ms returns FALSE
T4BA8 000:591.866 JLINK_HasError()
T4BA8 000:593.393 JLINK_IsHalted()
T4BA8 000:593.853 - 0.467ms returns FALSE
T4BA8 000:593.866 JLINK_HasError()
T4BA8 000:595.394 JLINK_IsHalted()
T4BA8 000:595.859 - 0.473ms returns FALSE
T4BA8 000:595.871 JLINK_HasError()
T4BA8 000:597.434 JLINK_IsHalted()
T4BA8 000:597.951 - 0.525ms returns FALSE
T4BA8 000:597.963 JLINK_HasError()
T4BA8 000:599.395 JLINK_IsHalted()
T4BA8 000:603.800   CPU_ReadMem(2 bytes @ 0x20000000)
T4BA8 000:604.390 - 5.002ms returns TRUE
T4BA8 000:604.403 JLINK_ReadReg(R15 (PC))
T4BA8 000:604.409 - 0.009ms returns 0x20000000
T4BA8 000:604.415 JLINK_ClrBPEx(BPHandle = 0x00000008)
T4BA8 000:604.420 - 0.007ms returns 0x00
T4BA8 000:604.425 JLINK_ReadReg(R0)
T4BA8 000:604.430 - 0.007ms returns 0x00000000
T4BA8 000:604.816 JLINK_WriteMem(0x20000164, 0x400 Bytes, ...)
T4BA8 000:604.825   Data:  10 20 00 F0 0B FB 2E E0 BB 48 84 42 08 D1 01 21 ...
T4BA8 000:604.837   CPU_WriteMem(1024 bytes @ 0x20000164)
T4BA8 000:611.372 - 6.563ms returns 0x400
T4BA8 000:611.385 JLINK_HasError()
T4BA8 000:611.391 JLINK_WriteReg(R0, 0x08001000)
T4BA8 000:611.397 - 0.009ms returns 0
T4BA8 000:611.403 JLINK_WriteReg(R1, 0x00000400)
T4BA8 000:611.407 - 0.006ms returns 0
T4BA8 000:611.412 JLINK_WriteReg(R2, 0x20000164)
T4BA8 000:611.417 - 0.006ms returns 0
T4BA8 000:611.422 JLINK_WriteReg(R3, 0x00000000)
T4BA8 000:611.426 - 0.006ms returns 0
T4BA8 000:611.431 JLINK_WriteReg(R4, 0x00000000)
T4BA8 000:611.435 - 0.006ms returns 0
T4BA8 000:611.441 JLINK_WriteReg(R5, 0x00000000)
T4BA8 000:611.445 - 0.006ms returns 0
T4BA8 000:611.450 JLINK_WriteReg(R6, 0x00000000)
T4BA8 000:611.455 - 0.006ms returns 0
T4BA8 000:611.459 JLINK_WriteReg(R7, 0x00000000)
T4BA8 000:611.464 - 0.006ms returns 0
T4BA8 000:611.468 JLINK_WriteReg(R8, 0x00000000)
T4BA8 000:611.473 - 0.006ms returns 0
T4BA8 000:611.478 JLINK_WriteReg(R9, 0x20000160)
T4BA8 000:611.482 - 0.006ms returns 0
T4BA8 000:611.487 JLINK_WriteReg(R10, 0x00000000)
T4BA8 000:611.491 - 0.006ms returns 0
T4BA8 000:611.496 JLINK_WriteReg(R11, 0x00000000)
T4BA8 000:611.501 - 0.006ms returns 0
T4BA8 000:611.505 JLINK_WriteReg(R12, 0x00000000)
T4BA8 000:611.510 - 0.006ms returns 0
T4BA8 000:611.515 JLINK_WriteReg(R13 (SP), 0x20000800)
T4BA8 000:611.520 - 0.007ms returns 0
T4BA8 000:611.525 JLINK_WriteReg(R14, 0x20000001)
T4BA8 000:611.529 - 0.006ms returns 0
T4BA8 000:611.534 JLINK_WriteReg(R15 (PC), 0x200000F4)
T4BA8 000:611.538 - 0.006ms returns 0
T4BA8 000:611.543 JLINK_WriteReg(XPSR, 0x01000000)
T4BA8 000:611.548 - 0.006ms returns 0
T4BA8 000:611.553 JLINK_WriteReg(MSP, 0x20000800)
T4BA8 000:611.557 - 0.006ms returns 0
T4BA8 000:611.562 JLINK_WriteReg(PSP, 0x20000800)
T4BA8 000:611.566 - 0.006ms returns 0
T4BA8 000:611.571 JLINK_WriteReg(CFBP, 0x00000000)
T4BA8 000:611.575 - 0.006ms returns 0
T4BA8 000:611.580 JLINK_SetBPEx(Addr = 0x20000000, Type = 0xFFFFFFF2)
T4BA8 000:611.586 - 0.007ms returns 0x00000009
T4BA8 000:611.591 JLINK_Go()
T4BA8 000:611.601   CPU_ReadMem(4 bytes @ 0xE0001000)
T4BA8 000:615.118 - 3.535ms
T4BA8 000:615.131 JLINK_IsHalted()
T4BA8 000:615.608 - 0.483ms returns FALSE
T4BA8 000:615.620 JLINK_HasError()
T4BA8 000:618.363 JLINK_IsHalted()
T4BA8 000:618.832 - 0.476ms returns FALSE
T4BA8 000:618.858 JLINK_HasError()
T4BA8 000:620.362 JLINK_IsHalted()
T4BA8 000:620.823 - 0.468ms returns FALSE
T4BA8 000:620.849 JLINK_HasError()
T4BA8 000:622.379 JLINK_IsHalted()
T4BA8 000:622.884 - 0.511ms returns FALSE
T4BA8 000:622.909 JLINK_HasError()
T4BA8 000:624.396 JLINK_IsHalted()
T4BA8 000:624.872 - 0.482ms returns FALSE
T4BA8 000:624.897 JLINK_HasError()
T4BA8 000:626.394 JLINK_IsHalted()
T4BA8 000:626.870 - 0.483ms returns FALSE
T4BA8 000:626.895 JLINK_HasError()
T4BA8 000:628.400 JLINK_IsHalted()
T4BA8 000:628.843 - 0.451ms returns FALSE
T4BA8 000:628.897 JLINK_HasError()
T4BA8 000:630.377 JLINK_IsHalted()
T4BA8 000:630.801 - 0.431ms returns FALSE
T4BA8 000:630.813 JLINK_HasError()
T4BA8 000:633.326 JLINK_IsHalted()
T4BA8 000:633.725 - 0.403ms returns FALSE
T4BA8 000:633.733 JLINK_HasError()
T4BA8 000:635.329 JLINK_IsHalted()
T4BA8 000:635.857 - 0.535ms returns FALSE
T4BA8 000:635.869 JLINK_HasError()
T4BA8 000:637.326 JLINK_IsHalted()
T4BA8 000:637.725 - 0.405ms returns FALSE
T4BA8 000:637.738 JLINK_HasError()
T4BA8 000:639.366 JLINK_IsHalted()
T4BA8 000:639.765 - 0.405ms returns FALSE
T4BA8 000:639.776 JLINK_HasError()
T4BA8 000:641.329 JLINK_IsHalted()
T4BA8 000:641.724 - 0.400ms returns FALSE
T4BA8 000:641.734 JLINK_HasError()
T4BA8 000:643.358 JLINK_IsHalted()
T4BA8 000:643.837 - 0.485ms returns FALSE
T4BA8 000:643.849 JLINK_HasError()
T4BA8 000:645.379 JLINK_IsHalted()
T4BA8 000:649.766   CPU_ReadMem(2 bytes @ 0x20000000)
T4BA8 000:650.386 - 5.012ms returns TRUE
T4BA8 000:650.399 JLINK_ReadReg(R15 (PC))
T4BA8 000:650.406 - 0.009ms returns 0x20000000
T4BA8 000:650.426 JLINK_ClrBPEx(BPHandle = 0x00000009)
T4BA8 000:650.430 - 0.007ms returns 0x00
T4BA8 000:650.436 JLINK_ReadReg(R0)
T4BA8 000:650.440 - 0.006ms returns 0x00000000
T4BA8 000:650.809 JLINK_WriteMem(0x20000164, 0x400 Bytes, ...)
T4BA8 000:650.818   Data:  01 24 00 E0 00 24 20 46 38 BD 01 46 00 20 9F 4A ...
T4BA8 000:650.830   CPU_WriteMem(1024 bytes @ 0x20000164)
T4BA8 000:657.447 - 6.643ms returns 0x400
T4BA8 000:657.457 JLINK_HasError()
T4BA8 000:657.463 JLINK_WriteReg(R0, 0x08001400)
T4BA8 000:657.470 - 0.008ms returns 0
T4BA8 000:657.475 JLINK_WriteReg(R1, 0x00000400)
T4BA8 000:657.480 - 0.006ms returns 0
T4BA8 000:657.485 JLINK_WriteReg(R2, 0x20000164)
T4BA8 000:657.489 - 0.006ms returns 0
T4BA8 000:657.494 JLINK_WriteReg(R3, 0x00000000)
T4BA8 000:657.498 - 0.006ms returns 0
T4BA8 000:657.504 JLINK_WriteReg(R4, 0x00000000)
T4BA8 000:657.508 - 0.006ms returns 0
T4BA8 000:657.513 JLINK_WriteReg(R5, 0x00000000)
T4BA8 000:657.518 - 0.006ms returns 0
T4BA8 000:657.522 JLINK_WriteReg(R6, 0x00000000)
T4BA8 000:657.526 - 0.006ms returns 0
T4BA8 000:657.531 JLINK_WriteReg(R7, 0x00000000)
T4BA8 000:657.536 - 0.006ms returns 0
T4BA8 000:657.541 JLINK_WriteReg(R8, 0x00000000)
T4BA8 000:657.545 - 0.006ms returns 0
T4BA8 000:657.550 JLINK_WriteReg(R9, 0x20000160)
T4BA8 000:657.554 - 0.006ms returns 0
T4BA8 000:657.559 JLINK_WriteReg(R10, 0x00000000)
T4BA8 000:657.564 - 0.006ms returns 0
T4BA8 000:657.568 JLINK_WriteReg(R11, 0x00000000)
T4BA8 000:657.573 - 0.006ms returns 0
T4BA8 000:657.578 JLINK_WriteReg(R12, 0x00000000)
T4BA8 000:657.582 - 0.006ms returns 0
T4BA8 000:657.587 JLINK_WriteReg(R13 (SP), 0x20000800)
T4BA8 000:657.592 - 0.007ms returns 0
T4BA8 000:657.597 JLINK_WriteReg(R14, 0x20000001)
T4BA8 000:657.601 - 0.006ms returns 0
T4BA8 000:657.606 JLINK_WriteReg(R15 (PC), 0x200000F4)
T4BA8 000:657.611 - 0.006ms returns 0
T4BA8 000:657.616 JLINK_WriteReg(XPSR, 0x01000000)
T4BA8 000:657.621 - 0.006ms returns 0
T4BA8 000:657.625 JLINK_WriteReg(MSP, 0x20000800)
T4BA8 000:657.630 - 0.006ms returns 0
T4BA8 000:657.635 JLINK_WriteReg(PSP, 0x20000800)
T4BA8 000:657.639 - 0.006ms returns 0
T4BA8 000:657.644 JLINK_WriteReg(CFBP, 0x00000000)
T4BA8 000:657.651 - 0.010ms returns 0
T4BA8 000:657.658 JLINK_SetBPEx(Addr = 0x20000000, Type = 0xFFFFFFF2)
T4BA8 000:657.663 - 0.007ms returns 0x0000000A
T4BA8 000:657.668 JLINK_Go()
T4BA8 000:657.678   CPU_ReadMem(4 bytes @ 0xE0001000)
T4BA8 000:661.044 - 3.381ms
T4BA8 000:661.054 JLINK_IsHalted()
T4BA8 000:661.514 - 0.465ms returns FALSE
T4BA8 000:661.523 JLINK_HasError()
T4BA8 000:663.367 JLINK_IsHalted()
T4BA8 000:663.847 - 0.487ms returns FALSE
T4BA8 000:663.859 JLINK_HasError()
T4BA8 000:665.357 JLINK_IsHalted()
T4BA8 000:665.816 - 0.465ms returns FALSE
T4BA8 000:665.827 JLINK_HasError()
T4BA8 000:667.358 JLINK_IsHalted()
T4BA8 000:667.820 - 0.469ms returns FALSE
T4BA8 000:667.832 JLINK_HasError()
T4BA8 000:669.356 JLINK_IsHalted()
T4BA8 000:669.813 - 0.463ms returns FALSE
T4BA8 000:669.824 JLINK_HasError()
T4BA8 000:671.386 JLINK_IsHalted()
T4BA8 000:671.865 - 0.485ms returns FALSE
T4BA8 000:671.876 JLINK_HasError()
T4BA8 000:673.361 JLINK_IsHalted()
T4BA8 000:673.869 - 0.514ms returns FALSE
T4BA8 000:673.894 JLINK_HasError()
T4BA8 000:675.360 JLINK_IsHalted()
T4BA8 000:675.906 - 0.566ms returns FALSE
T4BA8 000:675.931 JLINK_HasError()
T4BA8 000:677.364 JLINK_IsHalted()
T4BA8 000:677.845 - 0.488ms returns FALSE
T4BA8 000:677.856 JLINK_HasError()
T4BA8 000:679.357 JLINK_IsHalted()
T4BA8 000:679.827 - 0.476ms returns FALSE
T4BA8 000:679.839 JLINK_HasError()
T4BA8 000:681.357 JLINK_IsHalted()
T4BA8 000:681.852 - 0.502ms returns FALSE
T4BA8 000:681.864 JLINK_HasError()
T4BA8 000:683.356 JLINK_IsHalted()
T4BA8 000:683.836 - 0.486ms returns FALSE
T4BA8 000:683.861 JLINK_HasError()
T4BA8 000:685.359 JLINK_IsHalted()
T4BA8 000:685.870 - 0.517ms returns FALSE
T4BA8 000:685.882 JLINK_HasError()
T4BA8 000:687.389 JLINK_IsHalted()
T4BA8 000:687.906 - 0.524ms returns FALSE
T4BA8 000:687.918 JLINK_HasError()
T4BA8 000:689.363 JLINK_IsHalted()
T4BA8 000:689.845 - 0.488ms returns FALSE
T4BA8 000:689.870 JLINK_HasError()
T4BA8 000:691.358 JLINK_IsHalted()
T4BA8 000:695.872   CPU_ReadMem(2 bytes @ 0x20000000)
T4BA8 000:696.537 - 5.185ms returns TRUE
T4BA8 000:696.563 JLINK_ReadReg(R15 (PC))
T4BA8 000:696.570 - 0.009ms returns 0x20000000
T4BA8 000:696.576 JLINK_ClrBPEx(BPHandle = 0x0000000A)
T4BA8 000:696.581 - 0.007ms returns 0x00
T4BA8 000:696.586 JLINK_ReadReg(R0)
T4BA8 000:696.591 - 0.006ms returns 0x00000000
T4BA8 000:696.971 JLINK_WriteMem(0x20000164, 0x400 Bytes, ...)
T4BA8 000:696.979   Data:  01 21 80 15 FF F7 17 FF 00 21 A0 15 FF F7 13 FF ...
T4BA8 000:696.991   CPU_WriteMem(1024 bytes @ 0x20000164)
T4BA8 000:703.431 - 6.467ms returns 0x400
T4BA8 000:703.446 JLINK_HasError()
T4BA8 000:703.453 JLINK_WriteReg(R0, 0x08001800)
T4BA8 000:703.459 - 0.009ms returns 0
T4BA8 000:703.465 JLINK_WriteReg(R1, 0x00000400)
T4BA8 000:703.469 - 0.006ms returns 0
T4BA8 000:703.474 JLINK_WriteReg(R2, 0x20000164)
T4BA8 000:703.479 - 0.006ms returns 0
T4BA8 000:703.486 JLINK_WriteReg(R3, 0x00000000)
T4BA8 000:703.490 - 0.006ms returns 0
T4BA8 000:703.495 JLINK_WriteReg(R4, 0x00000000)
T4BA8 000:703.500 - 0.006ms returns 0
T4BA8 000:703.506 JLINK_WriteReg(R5, 0x00000000)
T4BA8 000:703.511 - 0.006ms returns 0
T4BA8 000:703.516 JLINK_WriteReg(R6, 0x00000000)
T4BA8 000:703.520 - 0.006ms returns 0
T4BA8 000:703.525 JLINK_WriteReg(R7, 0x00000000)
T4BA8 000:703.530 - 0.006ms returns 0
T4BA8 000:703.534 JLINK_WriteReg(R8, 0x00000000)
T4BA8 000:703.539 - 0.006ms returns 0
T4BA8 000:703.544 JLINK_WriteReg(R9, 0x20000160)
T4BA8 000:703.548 - 0.006ms returns 0
T4BA8 000:703.555 JLINK_WriteReg(R10, 0x00000000)
T4BA8 000:703.560 - 0.007ms returns 0
T4BA8 000:703.567 JLINK_WriteReg(R11, 0x00000000)
T4BA8 000:703.572 - 0.006ms returns 0
T4BA8 000:703.600 JLINK_WriteReg(R12, 0x00000000)
T4BA8 000:703.606 - 0.008ms returns 0
T4BA8 000:703.612 JLINK_WriteReg(R13 (SP), 0x20000800)
T4BA8 000:703.617 - 0.009ms returns 0
T4BA8 000:703.624 JLINK_WriteReg(R14, 0x20000001)
T4BA8 000:703.628 - 0.006ms returns 0
T4BA8 000:703.633 JLINK_WriteReg(R15 (PC), 0x200000F4)
T4BA8 000:703.641 - 0.010ms returns 0
T4BA8 000:703.647 JLINK_WriteReg(XPSR, 0x01000000)
T4BA8 000:703.652 - 0.006ms returns 0
T4BA8 000:703.656 JLINK_WriteReg(MSP, 0x20000800)
T4BA8 000:703.662 - 0.007ms returns 0
T4BA8 000:703.667 JLINK_WriteReg(PSP, 0x20000800)
T4BA8 000:703.671 - 0.006ms returns 0
T4BA8 000:703.676 JLINK_WriteReg(CFBP, 0x00000000)
T4BA8 000:703.680 - 0.006ms returns 0
T4BA8 000:703.685 JLINK_SetBPEx(Addr = 0x20000000, Type = 0xFFFFFFF2)
T4BA8 000:703.691 - 0.007ms returns 0x0000000B
T4BA8 000:703.696 JLINK_Go()
T4BA8 000:703.706   CPU_ReadMem(4 bytes @ 0xE0001000)
T4BA8 000:707.076 - 3.387ms
T4BA8 000:707.088 JLINK_IsHalted()
T4BA8 000:707.585 - 0.503ms returns FALSE
T4BA8 000:707.615 JLINK_HasError()
T4BA8 000:710.327 JLINK_IsHalted()
T4BA8 000:710.770 - 0.446ms returns FALSE
T4BA8 000:710.778 JLINK_HasError()
T4BA8 000:712.418 JLINK_IsHalted()
T4BA8 000:712.853 - 0.443ms returns FALSE
T4BA8 000:712.866 JLINK_HasError()
T4BA8 000:714.330 JLINK_IsHalted()
T4BA8 000:714.761 - 0.435ms returns FALSE
T4BA8 000:714.770 JLINK_HasError()
T4BA8 000:716.357 JLINK_IsHalted()
T4BA8 000:716.823 - 0.473ms returns FALSE
T4BA8 000:716.835 JLINK_HasError()
T4BA8 000:718.356 JLINK_IsHalted()
T4BA8 000:718.812 - 0.463ms returns FALSE
T4BA8 000:718.824 JLINK_HasError()
T4BA8 000:720.358 JLINK_IsHalted()
T4BA8 000:720.830 - 0.478ms returns FALSE
T4BA8 000:720.841 JLINK_HasError()
T4BA8 000:722.356 JLINK_IsHalted()
T4BA8 000:722.825 - 0.476ms returns FALSE
T4BA8 000:722.837 JLINK_HasError()
T4BA8 000:724.352 JLINK_IsHalted()
T4BA8 000:724.816 - 0.467ms returns FALSE
T4BA8 000:724.823 JLINK_HasError()
T4BA8 000:728.348 JLINK_IsHalted()
T4BA8 000:728.759 - 0.414ms returns FALSE
T4BA8 000:728.766 JLINK_HasError()
T4BA8 000:730.325 JLINK_IsHalted()
T4BA8 000:730.759 - 0.438ms returns FALSE
T4BA8 000:730.766 JLINK_HasError()
T4BA8 000:732.328 JLINK_IsHalted()
